pi@raspberrypi:~ $ cd /home/pi/rf24libs/RF24/examples_linux/build
pi@raspberrypi:~/rf24libs/RF24/examples_linux/build $ dir
acknowledgementPayloads  CMakeCache.txt  CMakeFiles  cmake_install.cmake  gettingstarted  Makefile  manualAcknowledgements  multiceiverDemo  scanner  streamingData
pi@raspberrypi:~/rf24libs/RF24/examples_linux/build $ ./scanner
./scanner================ SPI Configuration ================
CSN Pin         = /dev/spidev0.0
CE Pin          = Custom GPIO22
SPI Speedz      = 10 Mhz
================ NRF Configuration ================
STATUS          = 0x0e RX_DR=0 TX_DS=0 MAX_RT=0 RX_P_NO=7 TX_FULL=0
RX_ADDR_P0-1    = 0xe7e7e7e7e7 0xc2c2c2c2c2
RX_ADDR_P2-5    = 0xc3 0xc4 0xc5 0xc6
TX_ADDR         = 0xe7e7e7e7e7
RX_PW_P0-6      = 0x20 0x20 0x20 0x20 0x20 0x20
EN_AA           = 0x00
EN_RXADDR       = 0x03
RF_CH           = 0x4c
RF_SETUP        = 0x07
CONFIG          = 0x0e
DYNPD/FEATURE   = 0x00 0x00
Data Rate       = 1 MBPS
Model           = nRF24L01+
CRC Length      = 16 bits
PA Power        = PA_MAX
ARC             = 0
000000000000000011111111111111112222222222222222333333333333333344444444444444445555555555555555666666666666666677777777777777
0123456789abcdef0123456789abcdef0123456789abcdef0123456789abcdef0123456789abcdef0123456789abcdef0123456789abcdef0123456789abcd
-------2-377557b86797245321---------------------------------------------------------------------------------------------------
-------15695312773266643256---------------------------------------------------------------------------------------------------
-------3314-488799786896234---------------------------------------------------------------------------------------------------
--21---1569bc9875553125542-1---------------------1-1--------------------------------------------------------------------------
--------235568c8834678651131---------------------11---------------------------------------------------------------------------
-------3564257cbb85114341-1----------------------21---------------------------------------------------------------------------
-------432344545549932287754---------------------212-------------------------------------------------------------------1------
--2-1--11137328ba75515786434-----------------------------------------1--------------------------------------------------------
-------2127766225a6358432353--------------------------------------------------------------------------------------------------
--23---1--159787244342555376-----------------------------------------1-1------------------------------------------------------
----11--2168436a864675621114--1-----------1------------1-------------193------------------------------------------------------
--------34744579a5487546222---------------------1---------------------1-------------------------------------------------------
-------352367548665233631452--------------------------------------------------------------------------------------------------
-------334462268432-499b2233--------------------------------------------------------------------------------------------------
--23---214abb6131347632532241----------------------1--------1---------11------------------------------------------------------
--311-----565574333865ba52322----------------------------------------1--------------------------------------------------------
--22----24453566534495253355-----------------------------------------1--------------------------------------------------------
--21----1-2247b547ab967654521--111----------------------------------11--------------------------------------------------------
--21-----27eeb733244-34213341--------------------------------------1----------------------------------------------------------
--2------167745899577836a622---------------------1----------------1-1---------------------------------------------------------
--2----12595554334873345a744--------------------------------------112---------------------------------------------------------
1-21---132676979a86466257456--------------------------------------------------------------------------------------------------
--21----25598858665222444586--------------------------------------------------------------------------------------------------
--1----1--566874258893464423---------------------1-1--------------------------------------------------------------------------
-------1567bc943357532-31144---------------------1-1--------------------------------------------------------------------------
-------231164435786898963435------------------------------------------2-------------------------------------------------------
--------34249c71148866232321--------------------------------------------------------------------------------------------------
---1---22472475247447a639982--------------------------------------------------------------------------------------------------
-------244655983-26a86442458--------------------------------------------------------------------------------------------------
-------12254-993478886453223--------------------------------------------------------------------------------------------------
--1----365866556249833485324-----------------------------------------121------------------------------------------------------
--------11111256313588a61--1-----------------------------------------1--------------------------------------------------------
-------44488567cb74658796323--------------------------------------------------------------------------------------------------
